(1732475517.001113) can0 0AA#2AB02FA706505600 R
(1732475517.001126) can0 0BE#0000 R
(1732475517.001127) can0 0C9#0000000A00111800 R
(1732475517.001128) can0 18E#030300000000063E R
(1732475517.001128) can0 1BA#177B77BE5077B9D5 R
(1732475517.002514) can0 1ED#01900000000046A8 R
(1732475517.002523) can0 1C3#0650077B00000000 R
(1732475517.002524) can0 1EF#00000000 R
(1732475517.002525) can0 1C4#2762C030020007FF R
(1732475517.002525) can0 1F4#000000000000 R
(1732475517.002526) can0 1F5#ED40000F180083FD R
(1732475517.014336) can0 0AA#2AB02FA700505900 R
(1732475517.014353) can0 0BE#0000 R
(1732475517.014354) can0 0C9#0000000D00111800 R
(1732475517.014355) can0 18E#030300000000063E R
(1732475517.014357) can0 1ED#01900000000046A8 R
(1732475517.014358) can0 1EF#00000000 R
(1732475517.027869) can0 0AA#2AB02FA702505800 R
(1732475517.027887) can0 0BE#0000 R
(1732475517.027889) can0 0C9#0000000000111800 R
(1732475517.027890) can0 18E#030300000000063E R
(1732475517.027892) can0 1BA#177B77B75077B9D5 R
(1732475517.027894) can0 1ED#01900000000046A8 R
(1732475517.027894) can0 1C3#0650077B00000000 R
(1732475517.027895) can0 1EF#00000000 R
(1732475517.027896) can0 1C4#4A62C030040005FE R
(1732475517.027897) can0 1F4#000000000000 R
(1732475517.027900) can0 1F5#ED40000F180083FD R
(1732475517.027900) can0 2C3#065006A006A0C813 R
(1732475517.038363) can0 0AA#2AB02FA704505700 R
(1732475517.038369) can0 0BE#0000 R
(1732475517.038370) can0 0C9#0000000700111800 R
(1732475517.038370) can0 18E#030300000000063E R
(1732475517.038733) can0 1ED#01900000000046A8 R
(1732475517.038734) can0 1EF#00000000 R
(1732475517.053081) can0 0AA#2AB02FA706505600 R
(1732475517.053120) can0 0BE#0000 R
(1732475517.053121) can0 0C9#0000000A00111800 R
(1732475517.053123) can0 18E#030300000000063E R
(1732475517.053124) can0 1BA#177B77B75077B9D5 R
(1732475517.053125) can0 1ED#01900000000046A8 R
(1732475517.053126) can0 1C3#0650077B00000000 R
(1732475517.053127) can0 1EF#00000000 R
(1732475517.053129) can0 1C4#6D62C030060003FD R
(1732475517.053130) can0 1F4#000000000000 R
(1732475517.053131) can0 1F5#ED40000F180083FD R
(1732475517.063101) can0 0AA#2AB02FA700505900 R
(1732475517.063107) can0 0BE#0000 R
(1732475517.063108) can0 0C9#0000000D00111800 R
(1732475517.063369) can0 18E#030300000000063E R
(1732475517.063784) can0 1ED#01900000000046A8 R
(1732475517.063786) can0 1EF#00000000 R
(1732475517.080818) can0 0AA#2AB02FA702505800 R
(1732475517.080862) can0 0BE#0000 R
(1732475517.080866) can0 0C9#0000000000111800 R
(1732475517.080867) can0 18E#030300000000063E R
(1732475517.080869) can0 1BA#177B77B75077B9D5 R
(1732475517.080873) can0 1ED#01900000000046A8 R
(1732475517.080877) can0 1C3#0650077B00000000 R
(1732475517.080878) can0 1EF#00000000 R
(1732475517.080879) can0 1C4#0062C03000000000 R
(1732475517.080880) can0 1F4#000000000000 R
(1732475517.080881) can0 1F5#ED40000F180083FD R
(1732475517.080882) can0 2C3#065006A006A0C813 R
(1732475517.080883) can0 3C1#0765080000000000 R
(1732475517.080885) can0 3D1#004A800000000000 R
(1732475517.080886) can0 3D3#8000 R
(1732475517.080888) can0 3E9#0000000000000000 R
(1732475517.080891) can0 3F9#00000000CD00FF00 R
(1732475517.080892) can0 3FB#0000 R
(1732475517.080892) can0 3FC#40001F6E6E R
(1732475517.080893) can0 4C1#00C73E3950000000 R
(1732475517.080894) can0 4C9#40390000 R
(1732475517.080894) can0 4D1#00390002330000B2 R
(1732475517.080896) can0 4F1#01DF01DF00BF0888 R
(1732475517.080897) can0 589#C0355D65AA6150 R
(1732475517.080898) can0 772#0011031500FF01 R
(1732475517.087933) can0 0AA#2AB02FA704505700 R
(1732475517.087936) can0 0BE#0000 R
(1732475517.088143) can0 0C9#0000000700111800 R
(1732475517.088389) can0 18E#030300000000063E R
(1732475517.088906) can0 1ED#01900000000046A8 R
(1732475517.088913) can0 1EF#00000000 R
(1732475517.102868) can0 0AA#2AB02FA706505600 R
(1732475517.102906) can0 0BE#0000 R
(1732475517.102907) can0 0C9#0000000A00111800 R
(1732475517.102908) can0 18E#030300000000063E R
(1732475517.102909) can0 1BA#177B77B75077B9D5 R
(1732475517.102911) can0 1ED#01900000000046A8 R
(1732475517.102912) can0 1C3#0650077B00000000 R
(1732475517.102913) can0 1EF#00000000 R
(1732475517.102914) can0 1C4#2762C030020007FF R
(1732475517.102915) can0 1F4#000000000000 R
(1732475517.102916) can0 1F5#ED40000F180083FD R
(1732475517.114038) can0 0AA#2AB02FA700505900 R
(1732475517.114056) can0 0BE#0000 R
(1732475517.114057) can0 0C9#0000000D00111800 R
(1732475517.114058) can0 18E#030300000000063E R
(1732475517.114058) can0 1ED#01900000000046A8 R
(1732475517.114058) can0 1EF#00000000 R
(1732475517.128412) can0 0AA#2AB02FA702505800 R
(1732475517.128450) can0 0BE#0000 R
(1732475517.128453) can0 0C9#0000000000111800 R
(1732475517.128455) can0 18E#030300000000063E R
(1732475517.128456) can0 1BA#177B77B75077B9D5 R
(1732475517.128458) can0 1ED#01900000000046A8 R
(1732475517.128460) can0 1C3#0650077B00000000 R
(1732475517.128461) can0 1EF#00000000 R
(1732475517.128461) can0 1C4#4A62C030040005FE R
(1732475517.128462) can0 1F4#000000000000 R
(1732475517.128463) can0 1F5#ED40000F180083FD R
(1732475517.128463) can0 2C3#065006A006A0C813 R
(1732475517.139146) can0 0AA#2AB02FA704505700 R
(1732475517.139171) can0 0BE#0000 R
(1732475517.139172) can0 0C9#0000000700111800 R
(1732475517.139172) can0 18E#030300000000063E R
(1732475517.139173) can0 1ED#01900000000046A8 R
(1732475517.139174) can0 1EF#00000000 R
(1732475517.152231) can0 0AA#2AB02FA706505600 R
(1732475517.152243) can0 0BE#0000 R
(1732475517.152243) can0 0C9#0000000A00111800 R
(1732475517.152244) can0 18E#030300000000063E R
(1732475517.152245) can0 1BA#177B77B75077B9D5 R
(1732475517.152245) can0 1ED#01900000000046A8 R
(1732475517.152246) can0 1C3#0650077B00000000 R
(1732475517.152246) can0 1EF#00000000 R
(1732475517.152246) can0 1C4#6D62C030060003FD R
(1732475517.152450) can0 1F4#000000000000 R
(1732475517.152691) can0 1F5#ED40000F180083FD R
(1732475517.164140) can0 0AA#2AB02FA700505900 R
(1732475517.164159) can0 0BE#0000 R
(1732475517.164160) can0 0C9#0000000D00111800 R
(1732475517.164161) can0 18E#030300000000063E R
(1732475517.164161) can0 1ED#01900000000046A8 R
(1732475517.164162) can0 1EF#00000000 R
(1732475517.175751) can0 0AA#2AB02FA702505800 R
(1732475517.175762) can0 0BE#0000 R
(1732475517.175763) can0 0C9#0000000000111800 R
(1732475517.175991) can0 18E#030300000000063E R
(1732475517.176211) can0 1BA#177B77BE5077B9D5 R
(1732475517.176448) can0 1ED#01900000000046A8 R
(1732475517.176854) can0 1C3#0650077B00000000 R
(1732475517.176855) can0 1EF#00000000 R
(1732475517.177125) can0 1C4#0062C03000000000 R
(1732475517.177327) can0 1F4#000000000000 R
(1732475517.177580) can0 1F5#ED40000F180083FD R
(1732475517.177835) can0 2C3#065006A006A0C813 R
(1732475517.178047) can0 3C1#0765080000000000 R
(1732475517.178444) can0 3D1#004A800000000000 R
(1732475517.178444) can0 3D3#8000 R
(1732475517.178689) can0 3E9#0000000000000000 R
(1732475517.188971) can0 0AA#2AB02FA704505700 R
(1732475517.188988) can0 0BE#0000 R
(1732475517.188989) can0 0C9#0000000700111800 R
(1732475517.188989) can0 18E#030300000000063E R
(1732475517.188990) can0 1ED#01900000000046A8 R
(1732475517.188991) can0 1EF#00000000 R
(1732475517.200586) can0 0AA#2AB02FA706505600 R
(1732475517.200593) can0 0BE#0000 R
(1732475517.200806) can0 0C9#0000000A00111800 R
(1732475517.201051) can0 18E#030300000000063E R
(1732475517.201280) can0 1BA#177B77BE5077B9D5 R
(1732475517.201519) can0 1ED#01900000000046A8 R
(1732475517.201941) can0 1C3#0650077B00000000 R
(1732475517.201943) can0 1EF#00000000 R
(1732475517.202207) can0 1C4#2762C030020007FF R
(1732475517.202413) can0 1F4#000000000000 R
(1732475517.202677) can0 1F5#ED40000F180083FD R
(1732475517.214578) can0 0AA#2AB02FA700505900 R
(1732475517.214617) can0 0BE#0000 R
(1732475517.214619) can0 0C9#0000000D00111800 R
(1732475517.214621) can0 18E#030300000000063E R
(1732475517.214622) can0 1ED#01900000000046A8 R
(1732475517.214623) can0 1EF#00000000 R
(1732475517.225831) can0 0AA#2AB02FA702505800 R
(1732475517.225844) can0 0BE#0000 R
(1732475517.225846) can0 0C9#0000000000111800 R
(1732475517.226564) can0 18E#030300000000063E R
(1732475517.226569) can0 1BA#177B77BE5077B9D5 R
(1732475517.226570) can0 1ED#01900000000046A8 R
(1732475517.227970) can0 1C3#0650077B00000000 R
(1732475517.227978) can0 1EF#00000000 R
(1732475517.227978) can0 1C4#4A62C030040005FE R
(1732475517.227980) can0 1F4#000000000000 R
(1732475517.227981) can0 1F5#ED40000F180083FD R
(1732475517.227981) can0 2C3#065006A006A0C813 R
(1732475517.239537) can0 0AA#2AB02FA704505700 R
(1732475517.239578) can0 0BE#0000 R
(1732475517.239580) can0 0C9#0000000700111800 R
(1732475517.239581) can0 18E#030300000000063E R
(1732475517.239582) can0 1ED#01900000000046A8 R
(1732475517.239584) can0 1EF#00000000 R
(1732475517.251750) can0 0AA#2AB02FA706505600 R
(1732475517.251774) can0 0BE#0000 R
(1732475517.251774) can0 0C9#0000000A00111800 R
(1732475517.251775) can0 18E#030300000000063E R
(1732475517.251776) can0 1BA#177B77BE5077B9D5 R
(1732475517.251777) can0 1ED#01900000000046A8 R
(1732475517.252977) can0 1C3#0650077B00000000 R
(1732475517.252988) can0 1EF#00000000 R
(1732475517.252989) can0 1C4#6D62C030060003FD R
(1732475517.252989) can0 1F4#000000000000 R
(1732475517.252990) can0 1F5#ED40000F180083FD R
(1732475517.264251) can0 0AA#2AB02FA700505900 R
(1732475517.264300) can0 0BE#0000 R
(1732475517.264301) can0 0C9#0000000D00111800 R
(1732475517.264302) can0 18E#030300000000063E R
(1732475517.264303) can0 1ED#01900000000046A8 R
(1732475517.264303) can0 1EF#00000000 R
(1732475517.277478) can0 0AA#2AB02FA702505800 R
(1732475517.277496) can0 0BE#0000 R
(1732475517.277498) can0 0C9#0000000000111800 R
(1732475517.277499) can0 18E#030300000000063E R
(1732475517.277500) can0 1BA#177B77BE5077B9D5 R
(1732475517.277501) can0 1ED#01900000000046A8 R
(1732475517.277501) can0 1C3#0650077B00000000 R
(1732475517.277502) can0 1EF#00000000 R
(1732475517.277502) can0 1C4#0062C03000000000 R
(1732475517.277503) can0 1F4#000000000000 R
(1732475517.279081) can0 1F5#ED40000F180083FD R
(1732475517.279103) can0 2C3#065006A006A0C813 R
(1732475517.279106) can0 3C1#0765080000000000 R
(1732475517.279107) can0 3D1#004A800000000000 R
(1732475517.279108) can0 3D3#8000 R
(1732475517.279109) can0 3E9#0000000000000000 R
(1732475517.288582) can0 0AA#2AB02FA704505700 R
(1732475517.288589) can0 0BE#0000 R
(1732475517.288589) can0 0C9#0000000700111800 R
(1732475517.288589) can0 18E#030300000000063E R
(1732475517.288960) can0 1ED#01900000000046A8 R
(1732475517.288961) can0 1EF#00000000 R
(1732475517.303315) can0 0AA#2AB02FA706505600 R
(1732475517.303355) can0 0BE#0000 R
(1732475517.303358) can0 0C9#0000000A00111800 R
(1732475517.303359) can0 18E#030300000000063E R
(1732475517.303362) can0 1BA#177B77BE5077B9D5 R
(1732475517.303363) can0 1ED#01900000000046A8 R
(1732475517.303365) can0 1C3#0650077B00000000 R
(1732475517.303367) can0 1EF#00000000 R
(1732475517.303369) can0 1C4#2762C030020007FF R
(1732475517.303370) can0 1F4#000000000000 R
(1732475517.303371) can0 1F5#ED40000F180083FD R
(1732475517.313343) can0 0AA#2AB02FA700505900 R
(1732475517.313352) can0 0BE#0000 R
(1732475517.313352) can0 0C9#0000000D00111800 R
(1732475517.313610) can0 18E#030300000000063E R
(1732475517.313998) can0 1ED#01900000000046A8 R
(1732475517.313999) can0 1EF#00000000 R
(1732475517.328952) can0 0AA#2AB02FA702505800 R
(1732475517.328968) can0 0BE#0000 R
(1732475517.328970) can0 0C9#0000000000111800 R
(1732475517.328970) can0 1BA#177B77BE5077B9D5 R
(1732475517.328973) can0 18E#030300000000063E R
(1732475517.328973) can0 1C3#0650077B00000000 R
(1732475517.328974) can0 1ED#01900000000046A8 R
(1732475517.328974) can0 1C4#4A62C030040005FE R
(1732475517.328975) can0 1EF#00000000 R
(1732475517.328976) can0 1F4#000000000000 R
(1732475517.328977) can0 1F5#ED40000F180083FD R
(1732475517.328977) can0 2C3#065006A006A0C813 R
(1732475517.328978) can0 3F9#00000000CD00FF00 R
(1732475517.328979) can0 3FB#0000 R
(1732475517.328979) can0 3FC#40001F6E6E R
(1732475517.338390) can0 0AA#2AB02FA704505700 R
(1732475517.338397) can0 0BE#0000 R
(1732475517.338397) can0 0C9#0000000700111800 R
(1732475517.338677) can0 18E#030300000000063E R
(1732475517.339157) can0 1ED#01900000000046A8 R
(1732475517.339160) can0 1EF#00000000 R
(1732475517.353445) can0 0AA#2AB02FA706505600 R
(1732475517.353484) can0 0BE#0000 R
(1732475517.353486) can0 0C9#0000000A00111800 R
(1732475517.353487) can0 18E#030300000000063E R
(1732475517.353487) can0 1BA#177B77BE5077B9D5 R
(1732475517.353489) can0 1ED#01900000000046A8 R
(1732475517.353493) can0 1C3#0650077B00000000 R
(1732475517.353496) can0 1EF#00000000 R
(1732475517.353496) can0 1C4#6D62C030060003FD R
(1732475517.353498) can0 1F4#000000000000 R
(1732475517.353500) can0 1F5#ED40000F180083FD R
(1732475517.364226) can0 0AA#2AB02FA700505900 R
(1732475517.364245) can0 0BE#0000 R
(1732475517.364246) can0 0C9#0000000D00111800 R
(1732475517.364246) can0 18E#030300000000063E R
(1732475517.364247) can0 1ED#01900000000046A8 R
(1732475517.364248) can0 1EF#00000000 R
(1732475517.379031) can0 0AA#2AB02FA702505800 R
(1732475517.379051) can0 0BE#0000 R
(1732475517.379052) can0 0C9#0000000000111800 R
(1732475517.379052) can0 1BA#177B77BE5077B9D5 R
(1732475517.379053) can0 18E#030300000000063E R
(1732475517.379054) can0 1C3#0650077B00000000 R
(1732475517.379055) can0 1ED#01900000000046A8 R
(1732475517.379055) can0 1C4#0062C03000000000 R
(1732475517.379056) can0 1EF#00000000 R
(1732475517.379056) can0 1F4#000000000000 R
(1732475517.379057) can0 1F5#ED40000F180083FD R
(1732475517.379058) can0 2C3#065006A006A0C813 R
(1732475517.379058) can0 3C1#0765080000000000 R
(1732475517.379059) can0 3D1#004A800000000000 R
(1732475517.379060) can0 3D3#8000 R
(1732475517.379060) can0 3E9#0000000000000000 R
(1732475517.389219) can0 0AA#2AB02FA704505700 R
(1732475517.389247) can0 0BE#0000 R
(1732475517.389247) can0 0C9#0000000700111800 R
(1732475517.389248) can0 18E#030300000000063E R
(1732475517.389248) can0 1ED#01900000000046A8 R
(1732475517.389249) can0 1EF#00000000 R
(1732475517.402095) can0 0AA#2AB02FA706505600 R
(1732475517.402108) can0 0BE#0000 R
(1732475517.402109) can0 0C9#0000000A00111800 R
(1732475517.402110) can0 18E#030300000000063E R
(1732475517.402110) can0 1BA#177B77B75077B9D5 R
(1732475517.402113) can0 1ED#01900000000046A8 R
(1732475517.402114) can0 1C3#0650077B00000000 R
(1732475517.402114) can0 1EF#00000000 R
(1732475517.402347) can0 1C4#2762C030020007FF R
(1732475517.402571) can0 1F4#000000000000 R
(1732475517.402784) can0 1F5#ED40000F180083FD R
(1732475517.414273) can0 0AA#2AB02FA700505900 R
(1732475517.414302) can0 0BE#0000 R
(1732475517.414304) can0 0C9#0000000D00111800 R
(1732475517.414306) can0 18E#030300000000063E R
(1732475517.414307) can0 1ED#01900000000046A8 R
(1732475517.414308) can0 1EF#00000000 R
(1732475517.425800) can0 0AA#2AB02FA702505800 R
(1732475517.425812) can0 0BE#0000 R
(1732475517.426009) can0 0C9#0000000000111800 R
(1732475517.426250) can0 18E#030300000000063E R
(1732475517.426467) can0 1BA#177B77B75077B9D5 R
(1732475517.426714) can0 1ED#01900000000046A8 R
(1732475517.427120) can0 1C3#0650077B00000000 R
(1732475517.427121) can0 1EF#00000000 R
(1732475517.427366) can0 1C4#4A62C030040005FE R
(1732475517.427571) can0 1F4#000000000000 R
(1732475517.427820) can0 1F5#ED40000F180083FD R
(1732475517.428038) can0 2C3#065006A006A0C813 R
(1732475517.439630) can0 0AA#2AB02FA704505700 R
(1732475517.439673) can0 0BE#0000 R
(1732475517.439675) can0 0C9#0000000700111800 R
(1732475517.439677) can0 18E#030300000000063E R
(1732475517.439678) can0 1ED#01900000000046A8 R
(1732475517.439679) can0 1EF#00000000 R
(1732475517.450968) can0 0AA#2AB02FA706505600 R
(1732475517.450973) can0 0BE#0000 R
(1732475517.451184) can0 0C9#0000000A00111800 R
(1732475517.451447) can0 18E#030300000000063E R
(1732475517.451676) can0 1BA#177B77B75077B9D5 R
(1732475517.451934) can0 1ED#01900000000046A8 R
(1732475517.452338) can0 1C3#0650077B00000000 R
(1732475517.452341) can0 1EF#00000000 R
(1732475517.453073) can0 1C4#6D62C030060003FD R
(1732475517.453077) can0 1F4#000000000000 R
(1732475517.453077) can0 1F5#ED40000F180083FD R
(1732475517.464865) can0 0AA#2AB02FA700505900 R
(1732475517.464908) can0 0BE#0000 R
(1732475517.464909) can0 0C9#0000000D00111800 R
(1732475517.464911) can0 18E#030300000000063E R
(1732475517.464911) can0 1ED#01900000000046A8 R
(1732475517.464913) can0 1EF#00000000 R
(1732475517.476549) can0 0AA#2AB02FA702505800 R
(1732475517.476564) can0 0BE#0000 R
(1732475517.476565) can0 0C9#0000000000111800 R
(1732475517.476565) can0 18E#030300000000063E R
(1732475517.476566) can0 1BA#177B77B75077B9D5 R
(1732475517.478420) can0 1ED#01900000000046A8 R
(1732475517.478441) can0 1C3#0650077B00000000 R
(1732475517.478443) can0 1EF#00000000 R
(1732475517.478444) can0 1C4#0062C03000000000 R
(1732475517.478447) can0 1F4#000000000000 R
(1732475517.478448) can0 1F5#ED40000F180083FD R
(1732475517.478448) can0 2C3#065006A006A0C813 R
(1732475517.478451) can0 3C1#0765080000000000 R
(1732475517.479062) can0 3D1#004A800000000000 R
(1732475517.479066) can0 3D3#8000 R
(1732475517.479066) can0 3E9#0000000000000000 R
(1732475517.489733) can0 0AA#2AB02FA704505700 R
(1732475517.489776) can0 0BE#0000 R
(1732475517.489777) can0 0C9#0000000700111800 R
(1732475517.489778) can0 18E#030300000000063E R
(1732475517.489778) can0 1ED#01900000000046A8 R
(1732475517.489779) can0 1EF#00000000 R
(1732475517.503150) can0 0AA#2AB02FA706505600 R
(1732475517.503182) can0 0BE#0000 R
(1732475517.503184) can0 0C9#0000000A00111800 R
(1732475517.503186) can0 18E#030300000000063E R
(1732475517.503188) can0 1BA#177B77B75077B9D5 R
(1732475517.503190) can0 1ED#01900000000046A8 R
(1732475517.503191) can0 1C3#0650077B00000000 R
(1732475517.503191) can0 1EF#00000000 R
(1732475517.503192) can0 1C4#2762C030020007FF R
(1732475517.503193) can0 1F4#000000000000 R
(1732475517.503194) can0 1F5#ED40000F180083FD R
(1732475517.514885) can0 0AA#2AB02FA700505900 R
(1732475517.514908) can0 0BE#0000 R
(1732475517.514908) can0 0C9#0000000D00111800 R
(1732475517.514909) can0 18E#030300000000063E R
(1732475517.514910) can0 1ED#01900000000046A8 R
(1732475517.514911) can0 1EF#00000000 R
(1732475517.528338) can0 0AA#2AB02FA702505800 R
(1732475517.528366) can0 0BE#0000 R
(1732475517.528368) can0 0C9#0000000000111800 R
(1732475517.528371) can0 18E#030300000000063E R
(1732475517.528376) can0 1BA#177B77B75077B9D5 R
(1732475517.528378) can0 1ED#01900000000046A8 R
(1732475517.528379) can0 1C3#0650077B00000000 R
(1732475517.528380) can0 1EF#00000000 R
(1732475517.528381) can0 1C4#4A62C030040005FE R
(1732475517.528383) can0 1F4#000000000000 R
(1732475517.528383) can0 1F5#ED40000F180083FD R
(1732475517.528383) can0 2C3#065006A006A0C813 R
(1732475517.538655) can0 0AA#2AB02FA704505700 R
(1732475517.538663) can0 0BE#0000 R
(1732475517.538664) can0 0C9#0000000700111800 R
(1732475517.538857) can0 18E#030300000000063E R
(1732475517.539231) can0 1ED#01900000000046A8 R
(1732475517.539232) can0 1EF#00000000 R
(1732475517.553571) can0 0AA#2AB02FA706505600 R
(1732475517.553608) can0 0BE#0000 R
(1732475517.553610) can0 0C9#0000000A00111800 R
(1732475517.553613) can0 18E#030300000000063E R
(1732475517.553614) can0 1BA#177B77B75077B9D5 R
(1732475517.553615) can0 1ED#01900000000046A8 R
(1732475517.553618) can0 1C3#0650077B00000000 R
(1732475517.553619) can0 1EF#00000000 R
(1732475517.553620) can0 1C4#6D62C030060003FD R
(1732475517.553621) can0 1F4#000000000000 R
(1732475517.553622) can0 1F5#ED40000F180083FD R
(1732475517.563603) can0 0AA#2AB02FA700505900 R
(1732475517.563612) can0 0BE#0000 R
(1732475517.563613) can0 0C9#0000000D00111800 R
(1732475517.563864) can0 18E#030300000000063E R
(1732475517.564258) can0 1ED#01900000000046A8 R
(1732475517.564259) can0 1EF#00000000 R
(1732475517.581025) can0 0AA#2AB02FA702505800 R
(1732475517.581068) can0 0BE#0000 R
(1732475517.581070) can0 0C9#0000000000111800 R
(1732475517.581073) can0 18E#030300000000063E R
(1732475517.581074) can0 1BA#177B77B75077B9D5 R
(1732475517.581076) can0 1ED#01900000000046A8 R
(1732475517.581078) can0 1C3#0650077B00000000 R
(1732475517.581079) can0 1EF#00000000 R
(1732475517.581081) can0 1C4#0062C03000000000 R
(1732475517.581082) can0 1F4#000000000000 R
(1732475517.581083) can0 1F5#ED40000F180083FD R
(1732475517.581084) can0 2C3#065006A006A0C813 R
(1732475517.581086) can0 3C1#0765080000000000 R
(1732475517.581087) can0 3D1#004A800000000000 R
(1732475517.581089) can0 3D3#8000 R
(1732475517.581089) can0 3E9#0000000000000000 R
(1732475517.581090) can0 3F9#00000000CD00FF00 R
(1732475517.581091) can0 3FB#0000 R
(1732475517.581092) can0 3FC#40001F6E6E R
(1732475517.581096) can0 4C1#00C73E3950000000 R
(1732475517.581097) can0 4C9#40390000 R
(1732475517.581098) can0 4D1#00390002330000B2 R
(1732475517.581099) can0 589#C83C5D95AE6150 R
(1732475517.588439) can0 0AA#2AB02FA704505700 R
(1732475517.588443) can0 0BE#0000 R
(1732475517.588660) can0 0C9#0000000700111800 R
(1732475517.588901) can0 18E#030300000000063E R
(1732475517.589289) can0 1ED#01900000000046A8 R
(1732475517.589291) can0 1EF#00000000 R
(1732475517.603522) can0 0AA#2AB02FA706505600 R
(1732475517.603560) can0 0BE#0000 R
(1732475517.603562) can0 0C9#0000000A00111800 R
(1732475517.603564) can0 18E#030300000000063E R
(1732475517.603565) can0 1BA#177B77B75077B9D5 R
(1732475517.603565) can0 1ED#01900000000046A8 R
(1732475517.603567) can0 1C3#0650077B00000000 R
(1732475517.603568) can0 1EF#00000000 R
(1732475517.603570) can0 1C4#2762C030020007FF R
(1732475517.603571) can0 1F4#000000000000 R
(1732475517.603572) can0 1F5#ED40000F180083FD R
(1732475517.614539) can0 0AA#2AB02FA700505900 R
(1732475517.614553) can0 0BE#0000 R
(1732475517.614554) can0 0C9#0000000D00111800 R
(1732475517.614555) can0 18E#030300000000063E R
(1732475517.614555) can0 1ED#01900000000046A8 R
(1732475517.614556) can0 1EF#00000000 R
(1732475517.629018) can0 0AA#2AB02FA702505800 R
(1732475517.629059) can0 0BE#0000 R
(1732475517.629062) can0 0C9#0000000000111800 R
(1732475517.629064) can0 18E#030300000000063E R
(1732475517.629066) can0 1BA#177B77B75077B9D5 R
(1732475517.629068) can0 1ED#01900000000046A8 R
(1732475517.629069) can0 1C3#0650077B00000000 R
(1732475517.629071) can0 1EF#00000000 R
(1732475517.629071) can0 1C4#4A62C030040005FE R
(1732475517.629072) can0 1F4#000000000000 R
(1732475517.629073) can0 1F5#ED40000F180083FD R
(1732475517.629074) can0 2C3#065006A006A0C813 R
(1732475517.639522) can0 0AA#2AB02FA704505700 R
(1732475517.639542) can0 0BE#0000 R
(1732475517.639542) can0 0C9#0000000700111800 R
(1732475517.639543) can0 18E#030300000000063E R
(1732475517.639543) can0 1ED#01900000000046A8 R
(1732475517.639544) can0 1EF#00000000 R
(1732475517.652705) can0 0AA#2AB02FA706505600 R
(1732475517.652717) can0 0BE#0000 R
(1732475517.652719) can0 0C9#0000000A00111800 R
(1732475517.652719) can0 18E#030300000000063E R
(1732475517.652720) can0 1BA#177B77B75077B9D5 R
(1732475517.652720) can0 1ED#01900000000046A8 R
(1732475517.652720) can0 1C3#0650077B00000000 R
(1732475517.652721) can0 1EF#00000000 R
(1732475517.652721) can0 1C4#6D62C030060003FD R
(1732475517.652926) can0 1F4#000000000000 R
(1732475517.653177) can0 1F5#ED40000F180083FD R
(1732475517.664657) can0 0AA#2AB02FA700505900 R
(1732475517.664677) can0 0BE#0000 R
(1732475517.664678) can0 0C9#0000000D00111800 R
(1732475517.664678) can0 18E#030300000000063E R
(1732475517.664679) can0 1ED#01900000000046A8 R
(1732475517.664679) can0 1EF#00000000 R
(1732475517.676032) can0 0AA#2AB02FA702505800 R
(1732475517.676043) can0 0BE#0000 R
(1732475517.676247) can0 0C9#0000000000111800 R
(1732475517.676468) can0 18E#030300000000063E R
(1732475517.676713) can0 1BA#177B77B75077B9D5 R
(1732475517.676957) can0 1ED#01900000000046A8 R
(1732475517.677352) can0 1C3#0650077B00000000 R
(1732475517.677355) can0 1EF#00000000 R
(1732475517.677616) can0 1C4#0062C03000000000 R
(1732475517.677855) can0 1F4#000000000000 R
(1732475517.678061) can0 1F5#ED40000F180083FD R
(1732475517.678298) can0 2C3#065006A006A0C813 R
(1732475517.678535) can0 3C1#0765080000000000 R
(1732475517.678937) can0 3D1#004A800000000000 R
(1732475517.678937) can0 3D3#8000 R
(1732475517.679181) can0 3E9#0000000000000000 R
(1732475517.689745) can0 0AA#2AB02FA704505700 R
(1732475517.689788) can0 0BE#0000 R
(1732475517.689789) can0 0C9#0000000700111800 R
(1732475517.689789) can0 18E#030300000000063E R
(1732475517.689789) can0 1ED#01900000000046A8 R
(1732475517.689790) can0 1EF#00000000 R
(1732475517.701071) can0 0AA#2AB02FA706505600 R
(1732475517.701074) can0 0BE#0000 R
(1732475517.701300) can0 0C9#0000000A00111800 R
(1732475517.701561) can0 18E#030300000000063E R
(1732475517.701771) can0 1BA#177B77B75077B9D5 R
(1732475517.702014) can0 1ED#01900000000046A8 R
(1732475517.702412) can0 1C3#0650077B00000000 R
(1732475517.702413) can0 1EF#00000000 R
(1732475517.702691) can0 1C4#2762C030020007FF R
(1732475517.702902) can0 1F4#000000000000 R
(1732475517.703147) can0 1F5#ED40000F180083FD R
(1732475517.715080) can0 0AA#2AB02FA700505900 R
(1732475517.715116) can0 0BE#0000 R
